<Qucs Dataset 25.2.0>
<indep time 263>
0.000000000000e+00
1.000000000000e-11
2.000000000000e-11
4.000000000000e-11
8.000000000000e-11
1.600000000000e-10
3.200000000000e-10
6.400000000000e-10
1.000000000000e-09
1.064000000000e-09
1.192000000000e-09
1.448000000000e-09
1.960000000000e-09
2.984000000000e-09
5.032000000000e-09
9.128000000000e-09
1.732000000000e-08
3.370400000000e-08
6.647200000000e-08
1.320080000000e-07
2.630800000000e-07
5.252240000000e-07
1.049512000000e-06
2.098088000000e-06
4.195240000000e-06
8.389544000000e-06
1.341467400000e-05
1.843980400000e-05
2.346493400000e-05
2.849006400000e-05
3.351519400000e-05
3.854032400000e-05
4.356545400000e-05
4.859058400000e-05
5.361571400000e-05
5.864084400000e-05
6.366597400000e-05
6.869110400000e-05
7.371623400000e-05
7.874136400000e-05
8.376649400000e-05
8.879162400000e-05
9.381675400000e-05
9.884188400000e-05
1.038670140000e-04
1.088921440000e-04
1.139172740000e-04
1.189424040000e-04
1.239675340000e-04
1.289926640000e-04
1.340177940000e-04
1.390429240000e-04
1.440680540000e-04
1.490931840000e-04
1.541183140000e-04
1.591434440000e-04
1.641685740000e-04
1.691937040000e-04
1.742188340000e-04
1.792439640000e-04
1.842690940000e-04
1.892942240000e-04
1.943193540000e-04
1.993444840000e-04
2.043696140000e-04
2.093947440000e-04
2.144198740000e-04
2.194450040000e-04
2.244701340000e-04
2.294952640000e-04
2.345203940000e-04
2.395455240000e-04
2.445706540000e-04
2.495957840000e-04
2.546209140000e-04
2.596460440000e-04
2.646711740000e-04
2.696963040000e-04
2.747214340000e-04
2.797465640000e-04
2.847716940000e-04
2.897968240000e-04
2.948219540000e-04
2.998470840000e-04
3.048722140000e-04
3.098973440000e-04
3.149224740000e-04
3.199476040000e-04
3.249727340000e-04
3.299978640000e-04
3.350229940000e-04
3.400481240000e-04
3.450732540000e-04
3.500983840000e-04
3.551235140000e-04
3.601486440000e-04
3.651737740000e-04
3.701989040000e-04
3.752240340000e-04
3.802491640000e-04
3.852742940000e-04
3.902994240000e-04
3.953245540000e-04
4.003496840000e-04
4.053748140000e-04
4.103999440000e-04
4.154250740000e-04
4.204502040000e-04
4.254753340000e-04
4.305004640000e-04
4.355255940000e-04
4.405507240000e-04
4.455758540000e-04
4.506009840000e-04
4.540010000000e-04
4.540011000000e-04
4.540013000000e-04
4.540017000000e-04
4.540020000000e-04
4.540020800000e-04
4.540022400000e-04
4.540025600000e-04
4.540032000000e-04
4.540044800000e-04
4.540070400000e-04
4.540121600000e-04
4.540224000000e-04
4.540428800000e-04
4.540838400000e-04
4.541657600000e-04
4.543296000000e-04
4.546572800000e-04
4.553126400000e-04
4.566233600000e-04
4.592448000001e-04
4.642699300001e-04
4.692950600001e-04
4.743201900001e-04
4.793453200001e-04
4.843704500001e-04
4.893955800001e-04
4.944207100001e-04
4.994458400001e-04
5.044709700001e-04
5.094961000001e-04
5.145212300001e-04
5.195463600001e-04
5.245714900001e-04
5.295966200001e-04
5.346217500001e-04
5.396468800001e-04
5.446720100001e-04
5.496971400001e-04
5.547222700001e-04
5.597474000001e-04
5.647725300001e-04
5.697976600001e-04
5.748227900001e-04
5.798479200001e-04
5.848730500001e-04
5.898981800001e-04
5.949233100001e-04
5.999484400001e-04
6.049735700001e-04
6.099987000001e-04
6.150238300001e-04
6.200489600001e-04
6.250740900001e-04
6.300992200001e-04
6.351243500001e-04
6.401494800001e-04
6.451746100001e-04
6.501997400001e-04
6.552248700001e-04
6.602500000001e-04
6.652751300001e-04
6.703002600001e-04
6.753253900001e-04
6.803505200001e-04
6.853756500001e-04
6.904007800001e-04
6.954259100001e-04
7.004510400001e-04
7.054761700001e-04
7.105013000001e-04
7.155264300001e-04
7.205515600001e-04
7.255766900001e-04
7.306018200001e-04
7.356269500001e-04
7.406520800001e-04
7.456772100001e-04
7.507023400001e-04
7.557274700001e-04
7.607526000001e-04
7.657777300001e-04
7.708028600001e-04
7.758279900001e-04
7.808531200001e-04
7.858782500001e-04
7.909033800001e-04
7.959285100001e-04
8.009536400001e-04
8.059787700001e-04
8.110039000001e-04
8.160290300001e-04
8.210541600001e-04
8.260792900001e-04
8.311044200001e-04
8.361295500001e-04
8.411546800001e-04
8.461798100001e-04
8.512049400001e-04
8.562300700001e-04
8.612552000001e-04
8.662803300001e-04
8.713054600001e-04
8.763305900001e-04
8.813557200001e-04
8.863808500001e-04
8.914059800001e-04
8.964311100001e-04
9.014562400001e-04
9.064813700001e-04
9.080020000000e-04
9.080021000000e-04
9.080023000000e-04
9.080027000000e-04
9.080030000000e-04
9.080030800000e-04
9.080032400000e-04
9.080035600000e-04
9.080042000000e-04
9.080054800000e-04
9.080080400000e-04
9.080131600000e-04
9.080234000000e-04
9.080438800000e-04
9.080848400000e-04
9.081667600000e-04
9.083306000000e-04
9.086582800000e-04
9.093136400000e-04
9.106243600000e-04
9.132458000001e-04
9.182709300001e-04
9.232960600001e-04
9.283211900001e-04
9.333463200001e-04
9.383714500001e-04
9.433965800001e-04
9.484217100001e-04
9.534468400001e-04
9.584719700001e-04
9.634971000001e-04
9.685222300001e-04
9.735473600001e-04
9.785724900001e-04
9.835976200001e-04
9.886227500001e-04
9.936478800001e-04
9.986730100001e-04
1.000000000000e-03
</indep>
<dep tran.v(audioout) time>
0.000000000000e+00
-6.603766855989e-12
-1.981130044282e-11
-5.943390082785e-11
-2.179242978626e-10
-8.518858469549e-10
-3.387731724943e-09
-1.353111267784e-08
-3.302541692467e-08
-3.725182327440e-08
-4.570463494863e-08
-6.261025214574e-08
-9.642146193458e-08
-1.640437830909e-07
-2.992880317188e-07
-5.697749542435e-07
-1.110742500430e-06
-2.192652397835e-06
-4.356371416672e-06
-8.683406381606e-06
-1.733586426969e-05
-3.463433387161e-05
-6.920550431261e-05
-1.382448974750e-04
-2.759129093127e-04
-5.496139301151e-04
-8.746795279728e-04
-1.196663768997e-03
-1.515595731427e-03
-1.831504219099e-03
-2.144417764040e-03
-2.454364629029e-03
-2.761372810139e-03
-3.065470039256e-03
-3.366683786569e-03
-3.665041263039e-03
-3.960569422849e-03
-4.253294965825e-03
-4.543244339836e-03
-4.830443743170e-03
-5.114919126894e-03
-5.396696197184e-03
-5.675800417632e-03
-5.952257011545e-03
-6.226090964201e-03
-6.497327025106e-03
-6.765989710210e-03
-7.032103304116e-03
-7.295691862263e-03
-7.556779213086e-03
-7.815388960159e-03
-8.071544484320e-03
-8.325268945768e-03
-8.576585286149e-03
-8.825516230615e-03
-9.072084289872e-03
-9.316311762198e-03
-9.558220735450e-03
-9.797833089051e-03
-1.003517049596e-02
-1.027025442460e-02
-1.050310614082e-02
-1.073374670980e-02
-1.096219699790e-02
-1.118847767461e-02
-1.141260921434e-02
-1.163461189831e-02
-1.185450581635e-02
-1.207231086870e-02
-1.228804676782e-02
-1.250173304014e-02
-1.271338902783e-02
-1.292303389053e-02
-1.313068660710e-02
-1.333636597728e-02
-1.354009062340e-02
-1.374187899208e-02
-1.394174935585e-02
-1.413971981482e-02
-1.433580829827e-02
-1.453003256631e-02
-1.472241021147e-02
-1.491295866022e-02
-1.510169517462e-02
-1.528863685383e-02
-1.547380063563e-02
-1.565720329798e-02
-1.583886146052e-02
-1.601879158604e-02
-1.619700998198e-02
-1.637353280190e-02
-1.654837604692e-02
-1.672155556716e-02
-1.689308706318e-02
-1.706298608736e-02
-1.723126804534e-02
-1.739794819736e-02
-1.756304165968e-02
-1.772656340588e-02
-1.788852826828e-02
-1.804895093919e-02
-1.820784597231e-02
-1.836522778398e-02
-1.852111065452e-02
-1.867550872945e-02
-1.882843602086e-02
-1.897990640856e-02
-1.912993364142e-02
-1.927853133854e-02
-1.942571299053e-02
-1.957149196066e-02
-1.971588148613e-02
-1.985889467919e-02
-2.000054452838e-02
-2.009561802653e-02
-2.009562015335e-02
-2.009562308625e-02
-2.009562102753e-02
-2.009561254954e-02
-2.009560949629e-02
-2.009560338979e-02
-2.009559117680e-02
-2.009556675084e-02
-2.009551789902e-02
-2.009542019572e-02
-2.009522479054e-02
-2.009483398584e-02
-2.009405239909e-02
-2.009248931620e-02
-2.008936351281e-02
-2.008311335526e-02
-2.007061883492e-02
-2.004565295532e-02
-1.999581369748e-02
-1.989650404620e-02
-1.970750074501e-02
-1.952028105241e-02
-1.933482813712e-02
-1.915112532669e-02
-1.896915610602e-02
-1.878890411583e-02
-1.861035315123e-02
-1.843348716027e-02
-1.825829024243e-02
-1.808474664727e-02
-1.791284077298e-02
-1.774255716497e-02
-1.757388051450e-02
-1.740679565728e-02
-1.724128757212e-02
-1.707734137960e-02
-1.691494234068e-02
-1.675407585543e-02
-1.659472746170e-02
-1.643688283379e-02
-1.628052778121e-02
-1.612564824735e-02
-1.597223030829e-02
-1.582026017146e-02
-1.566972417449e-02
-1.552060878390e-02
-1.537290059394e-02
-1.522658632535e-02
-1.508165282421e-02
-1.493808706069e-02
-1.479587612796e-02
-1.465500724095e-02
-1.451546773525e-02
-1.437724506598e-02
-1.424032680662e-02
-1.410470064791e-02
-1.397035439676e-02
-1.383727597515e-02
-1.370545341902e-02
-1.357487487720e-02
-1.344552861039e-02
-1.331740299005e-02
-1.319048649737e-02
-1.306476772223e-02
-1.294023536222e-02
-1.281687822156e-02
-1.269468521011e-02
-1.257364534241e-02
-1.245374773664e-02
-1.233498161370e-02
-1.221733629618e-02
-1.210080120745e-02
-1.198536587066e-02
-1.187101990785e-02
-1.175775303899e-02
-1.164555508105e-02
-1.153441594710e-02
-1.142432564540e-02
-1.131527427849e-02
-1.120725204232e-02
-1.110024922534e-02
-1.099425620766e-02
-1.088926346016e-02
-1.078526154365e-02
-1.068224110801e-02
-1.058019289136e-02
-1.047910771921e-02
-1.037897650365e-02
-1.027979024254e-02
-1.018154001867e-02
-1.008421699900e-02
-9.987812433836e-03
-9.892317656043e-03
-9.797724080284e-03
-9.704023202236e-03
-9.611206597830e-03
-9.519265922490e-03
-9.428192910385e-03
-9.337979373687e-03
-9.248617201831e-03
-9.160098360792e-03
-9.072414892357e-03
-8.985558913411e-03
-8.899522615231e-03
-8.814298262782e-03
-8.729878194021e-03
-8.646254819208e-03
-8.563420620228e-03
-8.481368149907e-03
-8.456691772249e-03
-8.456690812180e-03
-8.456690212797e-03
-8.456696938549e-03
-8.456708916813e-03
-8.456712903467e-03
-8.456720876774e-03
-8.456736823382e-03
-8.456768716567e-03
-8.456832502821e-03
-8.456960074866e-03
-8.457215217095e-03
-8.457725494115e-03
-8.458746018408e-03
-8.460786948004e-03
-8.464868331285e-03
-8.473029194575e-03
-8.489343311003e-03
-8.521941126765e-03
-8.587015277738e-03
-8.716679155957e-03
-8.963441326767e-03
-9.207861113764e-03
-9.449960621761e-03
-9.689761746977e-03
-9.927286179001e-03
-1.016255540275e-02
-1.039559070039e-02
-1.062641315325e-02
-1.085504364374e-02
-1.108150285720e-02
-1.130581128377e-02
-1.152798922022e-02
-1.174805677180e-02
-1.196603385405e-02
-1.218194019453e-02
-1.239579533468e-02
-1.260761863152e-02
-1.266321788563e-02
</dep>
<dep tran.v(picopwm) time>
1.200000000000e+00
1.221000000000e+00
1.242000000000e+00
1.284000000000e+00
1.368000000000e+00
1.536000000000e+00
1.872000000000e+00
2.544000000000e+00
3.300000000000e+00
3.300000000000e+00
3.300000000000e+00
3.300000000000e+00
3.300000000000e+00
3.300000000000e+00
3.300000000000e+00
3.300000000000e+00
3.300000000000e+00
3.300000000000e+00
3.300000000000e+00
3.300000000000e+00
3.300000000000e+00
3.300000000000e+00
3.300000000000e+00
3.300000000000e+00
3.300000000000e+00
3.300000000000e+00
3.300000000000e+00
3.300000000000e+00
3.300000000000e+00
3.300000000000e+00
3.300000000000e+00
3.300000000000e+00
3.300000000000e+00
3.300000000000e+00
3.300000000000e+00
3.300000000000e+00
3.300000000000e+00
3.300000000000e+00
3.300000000000e+00
3.300000000000e+00
3.300000000000e+00
3.300000000000e+00
3.300000000000e+00
3.300000000000e+00
3.300000000000e+00
3.300000000000e+00
3.300000000000e+00
3.300000000000e+00
3.300000000000e+00
3.300000000000e+00
3.300000000000e+00
3.300000000000e+00
3.300000000000e+00
3.300000000000e+00
3.300000000000e+00
3.300000000000e+00
3.300000000000e+00
3.300000000000e+00
3.300000000000e+00
3.300000000000e+00
3.300000000000e+00
3.300000000000e+00
3.300000000000e+00
3.300000000000e+00
3.300000000000e+00
3.300000000000e+00
3.300000000000e+00
3.300000000000e+00
3.300000000000e+00
3.300000000000e+00
3.300000000000e+00
3.300000000000e+00
3.300000000000e+00
3.300000000000e+00
3.300000000000e+00
3.300000000000e+00
3.300000000000e+00
3.300000000000e+00
3.300000000000e+00
3.300000000000e+00
3.300000000000e+00
3.300000000000e+00
3.300000000000e+00
3.300000000000e+00
3.300000000000e+00
3.300000000000e+00
3.300000000000e+00
3.300000000000e+00
3.300000000000e+00
3.300000000000e+00
3.300000000000e+00
3.300000000000e+00
3.300000000000e+00
3.300000000000e+00
3.300000000000e+00
3.300000000000e+00
3.300000000000e+00
3.300000000000e+00
3.300000000000e+00
3.300000000000e+00
3.300000000000e+00
3.300000000000e+00
3.300000000000e+00
3.300000000000e+00
3.300000000000e+00
3.300000000000e+00
3.300000000000e+00
3.300000000000e+00
3.300000000000e+00
3.300000000000e+00
3.300000000000e+00
3.300000000000e+00
3.300000000000e+00
3.300000000000e+00
3.300000000000e+00
3.090000000042e+00
2.670000000013e+00
1.829999999954e+00
1.200000000000e+00
1.200000000000e+00
1.200000000000e+00
1.200000000000e+00
1.200000000000e+00
1.200000000000e+00
1.200000000000e+00
1.200000000000e+00
1.200000000000e+00
1.200000000000e+00
1.200000000000e+00
1.200000000000e+00
1.200000000000e+00
1.200000000000e+00
1.200000000000e+00
1.200000000000e+00
1.200000000000e+00
1.200000000000e+00
1.200000000000e+00
1.200000000000e+00
1.200000000000e+00
1.200000000000e+00
1.200000000000e+00
1.200000000000e+00
1.200000000000e+00
1.200000000000e+00
1.200000000000e+00
1.200000000000e+00
1.200000000000e+00
1.200000000000e+00
1.200000000000e+00
1.200000000000e+00
1.200000000000e+00
1.200000000000e+00
1.200000000000e+00
1.200000000000e+00
1.200000000000e+00
1.200000000000e+00
1.200000000000e+00
1.200000000000e+00
1.200000000000e+00
1.200000000000e+00
1.200000000000e+00
1.200000000000e+00
1.200000000000e+00
1.200000000000e+00
1.200000000000e+00
1.200000000000e+00
1.200000000000e+00
1.200000000000e+00
1.200000000000e+00
1.200000000000e+00
1.200000000000e+00
1.200000000000e+00
1.200000000000e+00
1.200000000000e+00
1.200000000000e+00
1.200000000000e+00
1.200000000000e+00
1.200000000000e+00
1.200000000000e+00
1.200000000000e+00
1.200000000000e+00
1.200000000000e+00
1.200000000000e+00
1.200000000000e+00
1.200000000000e+00
1.200000000000e+00
1.200000000000e+00
1.200000000000e+00
1.200000000000e+00
1.200000000000e+00
1.200000000000e+00
1.200000000000e+00
1.200000000000e+00
1.200000000000e+00
1.200000000000e+00
1.200000000000e+00
1.200000000000e+00
1.200000000000e+00
1.200000000000e+00
1.200000000000e+00
1.200000000000e+00
1.200000000000e+00
1.200000000000e+00
1.200000000000e+00
1.200000000000e+00
1.200000000000e+00
1.200000000000e+00
1.200000000000e+00
1.200000000000e+00
1.200000000000e+00
1.200000000000e+00
1.200000000000e+00
1.200000000000e+00
1.200000000000e+00
1.200000000000e+00
1.200000000000e+00
1.200000000000e+00
1.200000000000e+00
1.200000000000e+00
1.200000000000e+00
1.200000000000e+00
1.200000000000e+00
1.200000000000e+00
1.200000000000e+00
1.200000000000e+00
1.410000000072e+00
1.829999999987e+00
2.670000000046e+00
3.300000000000e+00
3.300000000000e+00
3.300000000000e+00
3.300000000000e+00
3.300000000000e+00
3.300000000000e+00
3.300000000000e+00
3.300000000000e+00
3.300000000000e+00
3.300000000000e+00
3.300000000000e+00
3.300000000000e+00
3.300000000000e+00
3.300000000000e+00
3.300000000000e+00
3.300000000000e+00
3.300000000000e+00
3.300000000000e+00
3.300000000000e+00
3.300000000000e+00
3.300000000000e+00
3.300000000000e+00
3.300000000000e+00
3.300000000000e+00
3.300000000000e+00
3.300000000000e+00
3.300000000000e+00
3.300000000000e+00
3.300000000000e+00
3.300000000000e+00
3.300000000000e+00
3.300000000000e+00
3.300000000000e+00
3.300000000000e+00
3.300000000000e+00
</dep>
